
**** 11/10/24 23:22:28 *** PSpice 24.1.0 (4 September 2024) *** ID# 0 ********

 ** Profile: "SCHEMATIC1-schematic"  [ C:\Users\Enach\Desktop\Proiect1\Proiect1_EnacheVictor-PSpiceFiles\SCHEMATIC1\schematic.sim ] 


 ****     CIRCUIT DESCRIPTION


******************************************************************************




** Creating circuit file "schematic.cir" 
** WARNING: THIS AUTOMATICALLY GENERATED FILE MAY BE OVERWRITTEN BY SUBSEQUENT SIMULATIONS

*Libraries: 
* Profile Libraries :
* Local Libraries :
.LIB "../../../biblioteci spice/bc846b.lib" 
.LIB "../../../biblioteci spice/bc856b.lib" 
.LIB "../../../biblioteci spice/opto.lib" 
.LIB "../../../biblioteci spice/bzx84c2v7.lib" 
.LIB "../../../biblioteci spice/mjd31cg.lib" 
* From [PSPICE NETLIST] section of C:\Users\Enach\AppData\Roaming\SPB_Data\cdssetup\OrCAD_PSpice\24.1.0\PSpice.ini file:
.lib "nom.lib" 

*Analysis directives: 
.TRAN  0 1000ns 0 
.OPTIONS ADVCONV
.PROBE64 V(alias(*)) I(alias(*)) W(alias(*)) D(alias(*)) NOISE(alias(*)) 
.INC "..\SCHEMATIC1.net" 



**** INCLUDING SCHEMATIC1.net ****
* source PROIECT1_ENACHEVICTOR
R_R40         N308421 N308247  220  
Q_Q13         N308139 N307985 N307663 QBC856B 
Q_Q4         N308019 N308551 N308825 QBC846B 
R_R26         0 N309061  100  
Q_Q12         N308327 N308139 N307985 QBC856B 
Q_Q10         N308127 N307777 N308247 QBC846B 
R_R14         0 N308217  10k  
D_D1         0 N308327 BZX84-C2V7 
V_V1         N307663 0 20Vdc
R_R30         0 N308555  22k  
Q_Q1         N308551 N308327 N308261 QBC856B 
R_R8         N308415 N308421  8.2k  
R_R28         0 N3090291  100  
R_R10a         0 N308559  10k  
R_R19         N307663 N308015  3.3k  
R_R3         N307985 N307663  100  
D_D2         N307663 N308025 MLED81
X_P1         N308559 N308545 N308415 POT PARAMS: SET={SET} VALUE=5k
Q_Q5         N308697 N308697 N309061 QBC846B 
Q_Q2         N308555 N308545 N308261 QBC856B 
R_R20         N307663 N308019  3.3k  
R_R12         0 N308247  {LOAD}  
X_P2         N308909 N308327 N308327 POT PARAMS: SET=0.21 VALUE=5k
Q_Q9         N307663 N308127 N307949 QBC846B 
R_R35         0 N308025  1.8k  
Q_Q6         N308825 N308697 N3090291 QBC846B 
R_R29         0 N308551  22k  
Q_Q8         N307663 N307949 N307777 QMJD31C 
R_R37         0 N308139  10k  
R_R31         N308247 N3078751  1  
D_D3         N308247 N3088131 MLED81
R_R10         0 N308559  10k  
R_R41         N3078751 N307777  0.47  
R_R32         N308217 N308127  2.2k  
R_R9a         N3079351 N307663  10k  
R_R27         N308697 N307663  2.2k  
Q_Q3         N308015 N308555 N308825 QBC846B 
R_R36         0 N3088131  820  
Q_Q11         N308127 N308909 0 QBC846B 
R_R9         N308261 N3079351  22k  
Q_Q7         N308217 N308015 N307663 QBC856B 
R_R33         N308909 0  1k  
.PARAM  load=400 set=0.5

**** RESUMING schematic.cir ****
.END

**** 11/10/24 23:22:28 *** PSpice 24.1.0 (4 September 2024) *** ID# 0 ********

 ** Profile: "SCHEMATIC1-schematic"  [ C:\Users\Enach\Desktop\Proiect1\Proiect1_EnacheVictor-PSpiceFiles\SCHEMATIC1\schematic.sim ] 


 ****     Diode MODEL PARAMETERS


******************************************************************************




               MLED81          BZX84-C2V7      
          IS   10.000000E-09  110.880000E-18 
           N    1.1248           .92657      
         ISR   10.010000E-21    1.515900E-06 
         IKF   45.752000E-15  147.68         
          BV    5.4169          2.7639       
         IBV   10                .06977      
          RS    1.2366           .85899      
          TT    5.000000E-09   17.889000E-09 
         CJO   25.000000E-12  344.690000E-12 
          VJ     .75             .72935      
           M     .3333           .31964      


**** 11/10/24 23:22:28 *** PSpice 24.1.0 (4 September 2024) *** ID# 0 ********

 ** Profile: "SCHEMATIC1-schematic"  [ C:\Users\Enach\Desktop\Proiect1\Proiect1_EnacheVictor-PSpiceFiles\SCHEMATIC1\schematic.sim ] 


 ****     BJT MODEL PARAMETERS


******************************************************************************




               QBC846B         QBC856B         QMJD31C         
               NPN             PNP             NPN             
       LEVEL    1               1               1            
          IS   18.220000E-15   20.140000E-15   90.620200E-12 
          EG                                    1.05         
          BF  324.4           315.3             3.418700E+03 
          NF     .9932           .9974          1.17603      
         VAF   82              39.15           29.2393       
         IKF     .109            .079            .108267     
         ISE  289.400000E-18    6.578000E-15  537.193000E-09 
          NE    1.4             1.45            4            
          BR    8.29            8.68          367.353        
          NR     .9931           .9952          5            
         VAR   17.9             9.5             1.631        
         IKR     .09             .09            1.15207      
         ISC    9.982000E-12   16.330000E-15    1.157540E-09 
          NC    1.763           1.15            1.49179      
         ISS    0               0               0            
          RB   10              10              22.4853       
         RBM    5               5.000000E-06    1.000000E-12 
         IRB    5.000000E-06    5.000000E-06    2.209370E-03 
          RE     .649            .663         100.000000E-06 
          RC     .7014           .718            .138633     
         CJE   12.440000E-12   11.350000E-12  373.889000E-12 
         VJE     .7579           .7071           .67672      
         MJE     .3656           .3808           .575056     
         CJC    3.347000E-12    6.395000E-12  352.510000E-12 
         VJC     .5463           .4951           .884306     
         MJC     .391            .44             .473486     
        XCJC     .6193           .6288           .1          
         CJS    0               0               0            
         VJS     .75             .75             .75         
         MJS     .333            .333            .5          
          FC     .979            .9059           .8          
          TF  490.800000E-12  654.600000E-12   10.000000E-09 
         XTF    9.51            5.387           3.4926       
         VTF    2.927           6.245          12.6615       
         ITF     .3131           .2108           .052395     
          TR   90.000000E-09   55.000000E-09    3.298030E-06 
         XTB                                  999.997000E-15 
         XTI                                    1.000000E-12 
          KF    0               0               0            
          AF    1               1               1            
          CN    2.42            2.2             2.42         
           D     .87             .52             .87         


**** 11/10/24 23:22:28 *** PSpice 24.1.0 (4 September 2024) *** ID# 0 ********

 ** Profile: "SCHEMATIC1-schematic"  [ C:\Users\Enach\Desktop\Proiect1\Proiect1_EnacheVictor-PSpiceFiles\SCHEMATIC1\schematic.sim ] 


 ****     INITIAL TRANSIENT SOLUTION       TEMPERATURE =   27.000 DEG C


******************************************************************************



 NODE   VOLTAGE     NODE   VOLTAGE     NODE   VOLTAGE     NODE   VOLTAGE


(N307663)   20.0000                   (N307777)    6.8062                       

(N307949)    7.4033                   (N307985)   19.3460                       

(N308015)   19.3740                   (N308019)     .8028                       

(N308025)   18.8230                   (N308127)    7.9909                       

(N308139)   18.6630                   (N308217)    8.0656                       

(N308247)    6.7707                   (N308261)    3.3220                       

(N308327)    2.7055                   (N308415)    3.6765                       

(N308421)    6.6898                   (N308545)    2.7578                       

(N308551)    1.4627                   (N308555)    1.3507                       

(N308559)    1.8385                   (N308697)    1.4471                       

(N308825)     .7621                   (N308909)     .5465                       

(N309061)     .7522                   (N3078751)    6.7948                      

(N3079351)   14.7880                  (N3088131)    5.6226                      

(N3090291)     .7312                  




    VOLTAGE SOURCE CURRENTS
    NAME         CURRENT

    V_V1        -5.881E-02

    TOTAL POWER DISSIPATION   1.18E+00  WATTS



          JOB CONCLUDED

**** 11/10/24 23:22:28 *** PSpice 24.1.0 (4 September 2024) *** ID# 0 ********

 ** Profile: "SCHEMATIC1-schematic"  [ C:\Users\Enach\Desktop\Proiect1\Proiect1_EnacheVictor-PSpiceFiles\SCHEMATIC1\schematic.sim ] 


 ****     JOB STATISTICS SUMMARY


******************************************************************************



  Total job time (using Solver 1)   =         .08
